
T20DC 000:487 SEGGER J-Link V4.80g Log File (0001ms, 0270ms total)
T20DC 000:487 DLL Compiled: Feb 13 2014 20:50:02 (0001ms, 0270ms total)
T20DC 000:487 Logging started @ 2018-05-24 20:33 (0001ms, 0270ms total)
T20DC 000:488 JLINK_SetWarnOutHandler(...) (0000ms, 0270ms total)
T20DC 000:488 JLINK_OpenEx(...)
Firmware: J-Link ARM-OB STM32 compiled Aug 22 2012 19:52:04
Hardware: V7.00
S/N: 20160402
Feature(s): RDI,FlashDL,FlashBP,JFlash,GDBFull  returns O.K. (0272ms, 0542ms total)
T20DC 000:760 JLINK_SetErrorOutHandler(...) (0000ms, 0542ms total)
T20DC 000:760 JLINK_ExecCommand("ProjectFile = "C:\Users\Administrator\Desktop\imuÇý¶¯\stm32f407-imu\project\JLinkSettings.ini"", ...)  returns 0x00 (0001ms, 0543ms total)
T20DC 000:761 JLINK_ExecCommand("Device = STM32F407ZG", ...)Device "STM32F407ZG" selected (1024 KB flash, 128 KB RAM).  returns 0x00 (0005ms, 0548ms total)
T20DC 000:766 JLINK_ExecCommand("DisableConnectionTimeout", ...)  returns 0x01 (0000ms, 0548ms total)
T20DC 000:766 JLINK_GetHardwareVersion()  returns 0x11170 (0000ms, 0548ms total)
T20DC 000:766 JLINK_GetDLLVersion()  returns 48007 (0000ms, 0548ms total)
T20DC 000:766 JLINK_GetFirmwareString(...) (0000ms, 0548ms total)
T20DC 000:770 JLINK_GetDLLVersion()  returns 48007 (0000ms, 0548ms total)
T20DC 000:770 JLINK_GetCompileDateTime() (0000ms, 0548ms total)
T20DC 000:772 JLINK_GetFirmwareString(...) (0000ms, 0548ms total)
T20DC 000:774 JLINK_GetHardwareVersion()  returns 0x11170 (0000ms, 0548ms total)
T20DC 000:782 JLINK_TIF_Select(JLINKARM_TIF_SWD)  returns 0x00 (0001ms, 0549ms total)
T20DC 000:783 JLINK_SetSpeed(2000) (0000ms, 0549ms total)
T20DC 000:783 JLINK_GetId() >0x108 TIF>Found SWD-DP with ID 0x2BA01477 >0x0D TIF> >0x28 TIF> >0x0D TIF> >0x28 TIF> >0x0D TIF> >0x21 TIF> >0x0D TIF> >0x28 TIF> >0x0D TIF> >0x28 TIF> >0x0D TIF> >0x28 TIF> >0x0D TIF> >0x21 TIF> >0x0D TIF> >0x21 TIF> >0x0D TIF> >0x28 TIF> >0x0D TIF> >0x21 TIF> >0x0D TIF> >0x21 TIF> >0x0D TIF> >0x28 TIF> >0x0D TIF> >0x21 TIF> >0x0D TIF> >0x21 TIF> >0x108 TIF>Found SWD-DP with ID 0x2BA01477 >0x0D TIF> >0x21 TIF> >0x0D TIF> >0x28 TIF> >0x0D TIF> >0x28 TIF> >0x0D TIF> >0x21 TIF>
 >0x0D TIF> >0x28 TIF> >0x0D TIF> >0x21 TIF> >0x0D TIF> >0x21 TIF> >0x0D TIF> >0x21 TIF> >0x0D TIF> >0x21 TIF> >0x0D TIF> >0x28 TIF> >0x0D TIF> >0x28 TIF> >0x0D TIF> >0x21 TIF> >0x0D TIF> >0x28 TIF> >0x0D TIF> >0x28 TIF> >0x0D TIF> >0x28 TIF> >0x0D TIF> >0x21 TIF> >0x0D TIF> >0x21 TIF> >0x0D TIF> >0x28 TIF> >0x0D TIF> >0x21 TIF> >0x0D TIF> >0x21 TIF>Found Cortex-M4 r0p1, Little endian. -- CPU_WriteMem(4 bytes @ 0xE0002000) -- CPU_ReadMem(4 bytes @ 0xE000EDF0) -- CPU_ReadMem(4 bytes @ 0xE0002000)
FPUnit: 6 code (BP) slots and 2 literal slots -- CPU_ReadMem(4 bytes @ 0xE000EDFC) -- CPU_ReadMem(4 bytes @ 0xE0001000) -- CPU_WriteMem(4 bytes @ 0xE0001000) -- CPU_ReadMem(4 bytes @ 0xE00FF010)TPIU fitted. -- CPU_ReadMem(4 bytes @ 0xE00FF014)ETM fitted. -- CPU_ReadMem(4 bytes @ 0xE00FF018) >0x0D TIF> >0x21 TIF>  returns 0x2BA01477 (0035ms, 0584ms total)
T20DC 000:818 JLINK_GetDeviceFamily()  returns 14 (0000ms, 0584ms total)
T20DC 000:818 JLINK_ReadMem (0xE00FFFF0, 0x0010 Bytes, ...) -- CPU is running -- CPU_ReadMem(16 bytes @ 0xE00FFFF0) -- Data:  0D 00 00 00 10 00 00 00 05 00 00 00 B1 00 00 00  returns 0x00 (0000ms, 0584ms total)
T20DC 000:818 JLINK_ReadMem (0xE00FFFD0, 0x0020 Bytes, ...) -- CPU is running -- CPU_ReadMem(32 bytes @ 0xE00FFFD0) -- Data:  00 00 00 00 00 00 00 00 00 00 00 00 00 00 00 00 ...  returns 0x00 (0001ms, 0585ms total)
T20DC 000:819 JLINK_ReadMem (0xE00FF000, 0x0018 Bytes, ...) -- CPU is running -- CPU_ReadMem(24 bytes @ 0xE00FF000) -- Data:  03 F0 F0 FF 03 20 F0 FF 03 30 F0 FF 03 10 F0 FF ...  returns 0x00 (0001ms, 0586ms total)
T20DC 000:820 JLINK_ReadMemU32(0xE000ED00, 0x0001 Items, ...) -- CPU is running -- CPU_ReadMem(4 bytes @ 0xE000ED00) -- Data:  41 C2 0F 41  returns 0x01 (0000ms, 0586ms total)
T20DC 000:820 JLINK_ReadMemU32(0xE000EF40, 0x0001 Items, ...) -- CPU is running -- CPU_ReadMem(4 bytes @ 0xE000EF40) -- Data:  21 00 11 10  returns 0x01 (0001ms, 0587ms total)
T20DC 000:821 JLINK_ReadMemU32(0xE000EF44, 0x0001 Items, ...) -- CPU is running -- CPU_ReadMem(4 bytes @ 0xE000EF44) -- Data:  11 00 00 11  returns 0x01 (0000ms, 0587ms total)
T20DC 000:821 JLINK_SetResetType(JLINKARM_RESET_TYPE_NORMAL)  returns JLINKARM_RESET_TYPE_NORMAL (0001ms, 0588ms total)
T20DC 000:822 JLINK_Reset() -- CPU is running -- CPU_WriteMem(4 bytes @ 0xE000EDF0) -- CPU is running -- CPU_WriteMem(4 bytes @ 0xE000EDFC) >0x35 TIF> -- CPU is running -- CPU_WriteMem(4 bytes @ 0xE000ED0C) -- CPU is running -- CPU_ReadMem(4 bytes @ 0xE000EDF0) -- CPU is running -- CPU_ReadMem(4 bytes @ 0xE000EDF0) -- CPU is running -- CPU_WriteMem(4 bytes @ 0xE000EDF0) -- CPU is running -- CPU_WriteMem(4 bytes @ 0xE000EDFC) -- CPU is running -- CPU_ReadMem(4 bytes @ 0xE000EDF0)
 -- CPU_WriteMem(4 bytes @ 0xE0002000) -- CPU_ReadMem(4 bytes @ 0xE000EDFC) -- CPU_ReadMem(4 bytes @ 0xE0001000) (0016ms, 0604ms total)
T20DC 000:838 JLINK_ReadReg(R15 (PC))  returns 0x08001A90 (0000ms, 0604ms total)
T20DC 000:839 JLINK_ReadReg(XPSR)  returns 0x01000000 (0000ms, 0605ms total)
T20DC 000:839 JLINK_Halt()  returns 0x00 (0000ms, 0605ms total)
T20DC 000:839 JLINK_IsHalted()  returns TRUE (0000ms, 0605ms total)
T20DC 000:839 JLINK_ReadMemU32(0xE000EDF0, 0x0001 Items, ...) -- CPU_ReadMem(4 bytes @ 0xE000EDF0) -- Data:  03 00 03 00  returns 0x01 (0000ms, 0605ms total)
T20DC 000:839 JLINK_WriteU32(0xE000EDF0, 0xA05F0003) -- CPU_WriteMem(4 bytes @ 0xE000EDF0)  returns 0x00 (0001ms, 0606ms total)
T20DC 000:840 JLINK_WriteU32(0xE000EDFC, 0x01000000) -- CPU_WriteMem(4 bytes @ 0xE000EDFC)  returns 0x00 (0000ms, 0606ms total)
T20DC 000:841 JLINK_GetHWStatus(...)  returns 0x00 (0000ms, 0606ms total)
T20DC 000:842 JLINK_GetNumBPUnits(Type = 0xFFFFFF00)  returns 0x06 (0000ms, 0606ms total)
T20DC 000:842 JLINK_GetNumBPUnits(Type = 0xF0)  returns 0x2000 (0000ms, 0606ms total)
T20DC 000:842 JLINK_GetNumWPUnits()  returns 0x04 (0000ms, 0606ms total)
T20DC 000:843 JLINK_GetSpeed()  returns 0x7D0 (0000ms, 0606ms total)
T20DC 000:843 JLINK_ReadMemU32(0xE000E004, 0x0001 Items, ...) -- CPU_ReadMem(4 bytes @ 0xE000E004) -- Data:  02 00 00 00  returns 0x01 (0001ms, 0607ms total)
T20DC 000:844 JLINK_ReadMemU32(0xE000E004, 0x0001 Items, ...) -- CPU_ReadMem(4 bytes @ 0xE000E004) -- Data:  02 00 00 00  returns 0x01 (0000ms, 0607ms total)
T20DC 000:844 JLINK_WriteMem(0xE0001000, 0x001C Bytes, ...) -- Data:  01 00 00 00 00 00 00 00 00 00 00 00 00 00 00 00 ... -- CPU_WriteMem(28 bytes @ 0xE0001000)  returns 0x1C (0001ms, 0608ms total)
T20DC 000:845 JLINK_ReadMem (0xE0001000, 0x001C Bytes, ...) -- CPU_ReadMem(28 bytes @ 0xE0001000) -- Data:  01 00 00 40 00 00 00 00 00 00 00 00 00 00 00 00 ...  returns 0x00 (0001ms, 0609ms total)
T20DC 000:846 JLINK_ReadReg(R15 (PC))  returns 0x08001A90 (0000ms, 0609ms total)
T20DC 000:846 JLINK_ReadReg(XPSR)  returns 0x01000000 (0000ms, 0609ms total)
T20DC 000:930 JLINK_SetResetType(JLINKARM_RESET_TYPE_NORMAL)  returns JLINKARM_RESET_TYPE_NORMAL (0000ms, 0609ms total)
T20DC 000:930 JLINK_Reset() -- CPU_WriteMem(4 bytes @ 0xE000EDF0) -- CPU_WriteMem(4 bytes @ 0xE000EDFC) >0x35 TIF> -- CPU_WriteMem(4 bytes @ 0xE000ED0C) -- CPU_ReadMem(4 bytes @ 0xE000EDF0) -- CPU_ReadMem(4 bytes @ 0xE000EDF0) -- CPU_WriteMem(4 bytes @ 0xE000EDF0) -- CPU_WriteMem(4 bytes @ 0xE000EDFC) -- CPU is running -- CPU_ReadMem(4 bytes @ 0xE000EDF0) -- CPU_WriteMem(4 bytes @ 0xE0002000) -- CPU_ReadMem(4 bytes @ 0xE000EDFC) -- CPU_ReadMem(4 bytes @ 0xE0001000) (0019ms, 0628ms total)
T20DC 000:949 JLINK_ReadReg(R15 (PC))  returns 0x08001A90 (0000ms, 0628ms total)
T20DC 000:949 JLINK_ReadReg(XPSR)  returns 0x01000000 (0000ms, 0628ms total)
T20DC 001:199 JLINK_ReadMem (0x08001A90, 0x003C Bytes, ...) -- CPU_ReadMem(128 bytes @ 0x08001A80) -- Updating C cache (128 bytes @ 0x08001A80) -- Read from C cache (60 bytes @ 0x08001A90) -- Data:  09 48 80 47 09 48 00 47 FE E7 FE E7 FE E7 FE E7 ...  returns 0x00 (0002ms, 0630ms total)
T20DC 002:042 JLINK_ReadMem (0x00000000, 0x01A4 Bytes, ...) -- CPU_ReadMem(4 bytes @ 0x00000004) -- CPU_ReadMem(448 bytes @ 0x08000000) -- Updating C cache (448 bytes @ 0x08000000) -- Read from C cache (420 bytes @ 0x08000000) -- Data:  F8 44 00 20 91 1A 00 08 99 1A 00 08 9B 1A 00 08 ...  returns 0x00 (0005ms, 0635ms total)
T065C 002:680 JLINK_SetBPEx(Addr = 0x080003D8, Type = 0xFFFFFFF2)  returns 0x00000001 (0000ms, 0635ms total)
T065C 002:680 JLINK_Go() -- CPU_WriteMem(4 bytes @ 0xE0002000) -- CPU_WriteMem(4 bytes @ 0xE0002008) -- CPU_WriteMem(4 bytes @ 0xE000200C) -- CPU_WriteMem(4 bytes @ 0xE0002010) -- CPU_WriteMem(4 bytes @ 0xE0002014) -- CPU_WriteMem(4 bytes @ 0xE0002018) -- CPU_WriteMem(4 bytes @ 0xE000201C) -- CPU_WriteMem(4 bytes @ 0xE0001004) (0005ms, 0640ms total)
T065C 002:786 JLINK_IsHalted()  returns TRUE (0003ms, 0643ms total)
T065C 002:789 JLINK_Halt()  returns 0x00 (0000ms, 0640ms total)
T065C 002:789 JLINK_IsHalted()  returns TRUE (0000ms, 0640ms total)
T065C 002:789 JLINK_IsHalted()  returns TRUE (0000ms, 0640ms total)
T065C 002:789 JLINK_IsHalted()  returns TRUE (0000ms, 0640ms total)
T065C 002:789 JLINK_ReadReg(R15 (PC))  returns 0x080003D8 (0000ms, 0640ms total)
T065C 002:789 JLINK_ReadReg(XPSR)  returns 0x21000000 (0000ms, 0640ms total)
T065C 002:789 JLINK_ClrBPEx(BPHandle = 0x00000001)  returns 0x00 (0000ms, 0640ms total)
T065C 002:789 JLINK_ReadMemU32(0xE000ED30, 0x0001 Items, ...) -- CPU_ReadMem(4 bytes @ 0xE000ED30) -- Data:  03 00 00 00  returns 0x01 (0000ms, 0640ms total)
T065C 002:789 JLINK_ReadMemU32(0xE0001028, 0x0001 Items, ...) -- CPU_ReadMem(4 bytes @ 0xE0001028) -- Data:  00 00 00 00  returns 0x01 (0001ms, 0641ms total)
T065C 002:790 JLINK_ReadMemU32(0xE0001038, 0x0001 Items, ...) -- CPU_ReadMem(4 bytes @ 0xE0001038) -- Data:  00 02 00 00  returns 0x01 (0000ms, 0641ms total)
T065C 002:790 JLINK_ReadMemU32(0xE0001048, 0x0001 Items, ...) -- CPU_ReadMem(4 bytes @ 0xE0001048) -- Data:  00 00 00 00  returns 0x01 (0001ms, 0642ms total)
T065C 002:791 JLINK_ReadMemU32(0xE0001058, 0x0001 Items, ...) -- CPU_ReadMem(4 bytes @ 0xE0001058) -- Data:  00 00 00 00  returns 0x01 (0001ms, 0643ms total)
T065C 002:792 JLINK_ReadReg(R0)  returns 0x200002F8 (0000ms, 0643ms total)
T065C 002:792 JLINK_ReadReg(R1)  returns 0x200004F8 (0000ms, 0643ms total)
T065C 002:792 JLINK_ReadReg(R2)  returns 0x200004F8 (0000ms, 0643ms total)
T065C 002:792 JLINK_ReadReg(R3)  returns 0x200004F8 (0000ms, 0643ms total)
T065C 002:792 JLINK_ReadReg(R4)  returns 0x00000000 (0000ms, 0643ms total)
T065C 002:792 JLINK_ReadReg(R5)  returns 0x20000298 (0000ms, 0643ms total)
T065C 002:792 JLINK_ReadReg(R6)  returns 0x00000000 (0000ms, 0643ms total)
T065C 002:792 JLINK_ReadReg(R7)  returns 0x00000000 (0000ms, 0643ms total)
T065C 002:792 JLINK_ReadReg(R8)  returns 0x00000000 (0000ms, 0643ms total)
T065C 002:792 JLINK_ReadReg(R9)  returns 0x00000000 (0000ms, 0643ms total)
T065C 002:792 JLINK_ReadReg(R10)  returns 0x08001DE8 (0000ms, 0643ms total)
T065C 002:792 JLINK_ReadReg(R11)  returns 0x00000000 (0000ms, 0643ms total)
T065C 002:792 JLINK_ReadReg(R12)  returns 0x200002D8 (0000ms, 0643ms total)
T065C 002:792 JLINK_ReadReg(R13 (SP))  returns 0x200044F8 (0000ms, 0643ms total)
T065C 002:792 JLINK_ReadReg(R14)  returns 0x08000217 (0000ms, 0643ms total)
T065C 002:792 JLINK_ReadReg(R15 (PC))  returns 0x080003D8 (0000ms, 0643ms total)
T065C 002:792 JLINK_ReadReg(XPSR)  returns 0x21000000 (0000ms, 0643ms total)
T065C 002:792 JLINK_ReadReg(MSP)  returns 0x200044F8 (0000ms, 0643ms total)
T065C 002:792 JLINK_ReadReg(PSP)  returns 0x00000000 (0000ms, 0643ms total)
T065C 002:792 JLINK_ReadReg(CFBP)  returns 0x04000000 (0000ms, 0643ms total)
T065C 002:792 JLINK_ReadReg(FPSCR)  returns 0x03000000 (0005ms, 0648ms total)
T065C 002:797 JLINK_ReadReg(FPS0)  returns 0x00000000 (0000ms, 0648ms total)
T065C 002:797 JLINK_ReadReg(FPS1)  returns 0x00000000 (0000ms, 0648ms total)
T065C 002:797 JLINK_ReadReg(FPS2)  returns 0x00000000 (0000ms, 0648ms total)
T065C 002:797 JLINK_ReadReg(FPS3)  returns 0x00000000 (0000ms, 0648ms total)
T065C 002:797 JLINK_ReadReg(FPS4)  returns 0x00000000 (0000ms, 0648ms total)
T065C 002:797 JLINK_ReadReg(FPS5)  returns 0x00000000 (0000ms, 0648ms total)
T065C 002:797 JLINK_ReadReg(FPS6)  returns 0x00000000 (0000ms, 0648ms total)
T065C 002:797 JLINK_ReadReg(FPS7)  returns 0x00000000 (0000ms, 0648ms total)
T065C 002:797 JLINK_ReadReg(FPS8)  returns 0x00000000 (0000ms, 0648ms total)
T065C 002:797 JLINK_ReadReg(FPS9)  returns 0x00000000 (0000ms, 0648ms total)
T065C 002:797 JLINK_ReadReg(FPS10)  returns 0x00000000 (0000ms, 0648ms total)
T065C 002:797 JLINK_ReadReg(FPS11)  returns 0x00000000 (0000ms, 0648ms total)
T065C 002:797 JLINK_ReadReg(FPS12)  returns 0x00000000 (0000ms, 0648ms total)
T065C 002:797 JLINK_ReadReg(FPS13)  returns 0x00000000 (0000ms, 0648ms total)
T065C 002:797 JLINK_ReadReg(FPS14)  returns 0x00000000 (0000ms, 0648ms total)
T065C 002:797 JLINK_ReadReg(FPS15)  returns 0x00000000 (0000ms, 0648ms total)
T065C 002:797 JLINK_ReadReg(FPS16)  returns 0x00000000 (0000ms, 0648ms total)
T065C 002:797 JLINK_ReadReg(FPS17)  returns 0x00000000 (0000ms, 0648ms total)
T065C 002:797 JLINK_ReadReg(FPS18)  returns 0x00000000 (0000ms, 0648ms total)
T065C 002:797 JLINK_ReadReg(FPS19)  returns 0x00000000 (0000ms, 0648ms total)
T065C 002:797 JLINK_ReadReg(FPS20)  returns 0x00000000 (0000ms, 0648ms total)
T065C 002:797 JLINK_ReadReg(FPS31)  returns 0x00000000 (0000ms, 0648ms total)
T065C 002:797 JLINK_ReadReg(FPS7)  returns 0x00000000 (0000ms, 0648ms total)
T065C 002:797 JLINK_ReadReg(FPS8)  returns 0x00000000 (0000ms, 0648ms total)
T065C 002:797 JLINK_ReadReg(FPS9)  returns 0x00000000 (0000ms, 0648ms total)
T065C 002:797 JLINK_ReadReg(FPS10)  returns 0x00000000 (0000ms, 0648ms total)
T065C 002:797 JLINK_ReadReg(FPS11)  returns 0x00000000 (0000ms, 0648ms total)
T065C 002:797 JLINK_ReadReg(FPS12)  returns 0x00000000 (0000ms, 0648ms total)
T065C 002:797 JLINK_ReadReg(FPS13)  returns 0x00000000 (0000ms, 0648ms total)
T065C 002:797 JLINK_ReadReg(FPS14)  returns 0x00000000 (0000ms, 0648ms total)
T065C 002:797 JLINK_ReadReg(FPS15)  returns 0x00000000 (0000ms, 0648ms total)
T065C 002:797 JLINK_ReadReg(FPS16)  returns 0x00000000 (0000ms, 0648ms total)
T20DC 002:800 JLINK_ReadMem (0x00000000, 0x0004 Bytes, ...) -- CPU_ReadMem(4 bytes @ 0x00000004) -- CPU_ReadMem(64 bytes @ 0x08000000) -- Updating C cache (64 bytes @ 0x08000000) -- Read from C cache (4 bytes @ 0x08000000) -- Data:  F8 44 00 20  returns 0x00 (0002ms, 0650ms total)
T20DC 002:804 JLINK_ReadMemU32(0xE0001004, 0x0001 Items, ...) -- CPU_ReadMem(4 bytes @ 0xE0001004) -- Data:  6B 47 00 00  returns 0x01 (0001ms, 0651ms total)
T20DC 002:807 JLINK_ReadMem (0x080003D8, 0x0028 Bytes, ...) -- CPU_ReadMem(64 bytes @ 0x080003C0) -- Updating C cache (64 bytes @ 0x080003C0) -- Read from C cache (40 bytes @ 0x080003D8) -- Data:  8C B0 11 48 03 C8 CD E9 0A 01 0F 49 08 31 03 C9 ...  returns 0x00 (0001ms, 0652ms total)
T20DC 002:808 JLINK_ReadMem (0x08000400, 0x0014 Bytes, ...) -- CPU_ReadMem(64 bytes @ 0x08000400) -- Updating C cache (64 bytes @ 0x08000400) -- Read from C cache (20 bytes @ 0x08000400) -- Data:  CD E9 02 01 07 24 09 25 00 F0 BC F8 02 AB 06 AA ...  returns 0x00 (0001ms, 0653ms total)
T065C 008:888 JLINK_SetBPEx(Addr = 0x08000408, Type = 0xFFFFFFF2)  returns 0x00000002 (0000ms, 0653ms total)
T065C 008:888 JLINK_Go() -- CPU_WriteMem(4 bytes @ 0xE0002000) -- CPU_WriteMem(4 bytes @ 0xE0002008) (0002ms, 0655ms total)
T065C 008:991 JLINK_IsHalted()  returns TRUE (0003ms, 0659ms total)
T065C 008:994 JLINK_Halt()  returns 0x00 (0000ms, 0656ms total)
T065C 008:994 JLINK_IsHalted()  returns TRUE (0000ms, 0656ms total)
T065C 008:994 JLINK_IsHalted()  returns TRUE (0000ms, 0656ms total)
T065C 008:994 JLINK_IsHalted()  returns TRUE (0000ms, 0656ms total)
T065C 008:994 JLINK_ReadReg(R15 (PC))  returns 0x08000408 (0000ms, 0656ms total)
T065C 008:994 JLINK_ReadReg(XPSR)  returns 0x01000000 (0000ms, 0656ms total)
T065C 008:994 JLINK_ClrBPEx(BPHandle = 0x00000002)  returns 0x00 (0000ms, 0656ms total)
T065C 008:994 JLINK_ReadMemU32(0xE000ED30, 0x0001 Items, ...) -- CPU_ReadMem(4 bytes @ 0xE000ED30) -- Data:  03 00 00 00  returns 0x01 (0001ms, 0657ms total)
T065C 008:995 JLINK_ReadMemU32(0xE0001028, 0x0001 Items, ...) -- CPU_ReadMem(4 bytes @ 0xE0001028) -- Data:  00 00 00 00  returns 0x01 (0000ms, 0657ms total)
T065C 008:995 JLINK_ReadMemU32(0xE0001038, 0x0001 Items, ...) -- CPU_ReadMem(4 bytes @ 0xE0001038) -- Data:  00 02 00 00  returns 0x01 (0001ms, 0658ms total)
T065C 008:996 JLINK_ReadMemU32(0xE0001048, 0x0001 Items, ...) -- CPU_ReadMem(4 bytes @ 0xE0001048) -- Data:  00 00 00 00  returns 0x01 (0000ms, 0658ms total)
T065C 008:996 JLINK_ReadMemU32(0xE0001058, 0x0001 Items, ...) -- CPU_ReadMem(4 bytes @ 0xE0001058) -- Data:  00 00 00 00  returns 0x01 (0001ms, 0659ms total)
T065C 008:997 JLINK_ReadReg(R0)  returns 0x00000000 (0000ms, 0659ms total)
T065C 008:997 JLINK_ReadReg(R1)  returns 0x00000001 (0000ms, 0659ms total)
T065C 008:997 JLINK_ReadReg(R2)  returns 0x00000002 (0000ms, 0659ms total)
T065C 008:997 JLINK_ReadReg(R3)  returns 0x00000003 (0000ms, 0659ms total)
T065C 008:997 JLINK_ReadReg(R4)  returns 0x00000007 (0000ms, 0659ms total)
T065C 008:997 JLINK_ReadReg(R5)  returns 0x00000009 (0000ms, 0659ms total)
T065C 008:997 JLINK_ReadReg(R6)  returns 0x00000000 (0000ms, 0659ms total)
T065C 008:997 JLINK_ReadReg(R7)  returns 0x00000000 (0000ms, 0659ms total)
T065C 008:997 JLINK_ReadReg(R8)  returns 0x00000000 (0000ms, 0659ms total)
T065C 008:997 JLINK_ReadReg(R9)  returns 0x00000000 (0000ms, 0659ms total)
T065C 008:997 JLINK_ReadReg(R10)  returns 0x08001DE8 (0000ms, 0659ms total)
T065C 008:997 JLINK_ReadReg(R11)  returns 0x00000000 (0000ms, 0659ms total)
T065C 008:997 JLINK_ReadReg(R12)  returns 0x200002D8 (0000ms, 0659ms total)
T065C 008:997 JLINK_ReadReg(R13 (SP))  returns 0x200044C8 (0000ms, 0659ms total)
T065C 008:997 JLINK_ReadReg(R14)  returns 0x08000217 (0000ms, 0659ms total)
T065C 008:997 JLINK_ReadReg(R15 (PC))  returns 0x08000408 (0000ms, 0659ms total)
T065C 008:997 JLINK_ReadReg(XPSR)  returns 0x01000000 (0000ms, 0659ms total)
T065C 008:997 JLINK_ReadReg(MSP)  returns 0x200044C8 (0000ms, 0659ms total)
T065C 008:997 JLINK_ReadReg(PSP)  returns 0x00000000 (0000ms, 0659ms total)
T065C 008:997 JLINK_ReadReg(CFBP)  returns 0x04000000 (0000ms, 0659ms total)
T065C 008:997 JLINK_ReadReg(FPSCR)  returns 0x03000000 (0005ms, 0664ms total)
T065C 009:002 JLINK_ReadReg(FPS0)  returns 0x00000000 (0000ms, 0664ms total)
T065C 009:002 JLINK_ReadReg(FPS1)  returns 0x00000000 (0000ms, 0664ms total)
T065C 009:002 JLINK_ReadReg(FPS2)  returns 0x00000000 (0000ms, 0664ms total)
T065C 009:002 JLINK_ReadReg(FPS3)  returns 0x00000000 (0000ms, 0664ms total)
T065C 009:002 JLINK_ReadReg(FPS4)  returns 0x00000000 (0000ms, 0664ms total)
T065C 009:002 JLINK_ReadReg(FPS5)  returns 0x00000000 (0000ms, 0664ms total)
T065C 009:002 JLINK_ReadReg(FPS6)  returns 0x00000000 (0000ms, 0664ms total)
T065C 009:002 JLINK_ReadReg(FPS7)  returns 0x00000000 (0000ms, 0664ms total)
T065C 009:002 JLINK_ReadReg(FPS8)  returns 0x00000000 (0000ms, 0664ms total)
T065C 009:002 JLINK_ReadReg(FPS9)  returns 0x00000000 (0000ms, 0664ms total)
T065C 009:002 JLINK_ReadReg(FPS10)  returns 0x00000000 (0000ms, 0664ms total)
T065C 009:002 JLINK_ReadReg(FPS11)  returns 0x00000000 (0000ms, 0664ms total)
T065C 009:002 JLINK_ReadReg(FPS12)  returns 0x00000000 (0000ms, 0664ms total)
T065C 009:002 JLINK_ReadReg(FPS13)  returns 0x00000000 (0000ms, 0664ms total)
T065C 009:002 JLINK_ReadReg(FPS14)  returns 0x00000000 (0000ms, 0664ms total)
T065C 009:002 JLINK_ReadReg(FPS15)  returns 0x00000000 (0000ms, 0664ms total)
T065C 009:002 JLINK_ReadReg(FPS16)  returns 0x00000000 (0000ms, 0664ms total)
T065C 009:002 JLINK_ReadReg(FPS17)  returns 0x00000000 (0001ms, 0665ms total)
T065C 009:003 JLINK_ReadReg(FPS18)  returns 0x00000000 (0000ms, 0665ms total)
T065C 009:003 JLINK_ReadReg(FPS19)  returns 0x00000000 (0000ms, 0665ms total)
T065C 009:003 JLINK_ReadReg(FPS20)  returns 0x00000000 (0000ms, 0665ms total)
T065C 009:003 JLINK_ReadReg(FPS31)  returns 0x00000000 (0000ms, 0665ms total)
T065C 009:003 JLINK_ReadReg(FPS7)  returns 0x00000000 (0000ms, 0665ms total)
T065C 009:003 JLINK_ReadReg(FPS8)  returns 0x00000000 (0000ms, 0665ms total)
T065C 009:003 JLINK_ReadReg(FPS9)  returns 0x00000000 (0000ms, 0665ms total)
T065C 009:003 JLINK_ReadReg(FPS10)  returns 0x00000000 (0000ms, 0665ms total)
T065C 009:003 JLINK_ReadReg(FPS11)  returns 0x00000000 (0000ms, 0665ms total)
T065C 009:003 JLINK_ReadReg(FPS12)  returns 0x00000000 (0000ms, 0665ms total)
T065C 009:003 JLINK_ReadReg(FPS13)  returns 0x00000000 (0000ms, 0665ms total)
T065C 009:003 JLINK_ReadReg(FPS14)  returns 0x00000000 (0000ms, 0665ms total)
T065C 009:003 JLINK_ReadReg(FPS15)  returns 0x00000000 (0000ms, 0665ms total)
T065C 009:003 JLINK_ReadReg(FPS16)  returns 0x00000000 (0000ms, 0665ms total)
T20DC 009:004 JLINK_ReadMemU32(0xE0001004, 0x0001 Items, ...) -- CPU_ReadMem(4 bytes @ 0xE0001004) -- Data:  A8 47 00 00  returns 0x01 (0000ms, 0665ms total)
T20DC 009:007 JLINK_ReadMem (0x08000408, 0x003C Bytes, ...) -- CPU_ReadMem(128 bytes @ 0x08000400) -- Updating C cache (128 bytes @ 0x08000400) -- Read from C cache (60 bytes @ 0x08000408) -- Data:  00 F0 BC F8 02 AB 06 AA 0A A9 08 A8 CD E9 00 45 ...  returns 0x00 (0001ms, 0666ms total)
T065C 010:833 JLINK_Step() -- Read from C cache (2 bytes @ 0x08000408) -- Read from C cache (2 bytes @ 0x0800040A) -- Simulated  returns 0x00 (0001ms, 0667ms total)
T065C 010:834 JLINK_ReadReg(R15 (PC))  returns 0x08000584 (0000ms, 0667ms total)
T065C 010:834 JLINK_ReadReg(XPSR)  returns 0x01000000 (0000ms, 0667ms total)
T065C 010:834 JLINK_ReadReg(R0)  returns 0x00000000 (0000ms, 0667ms total)
T065C 010:834 JLINK_ReadReg(R1)  returns 0x00000001 (0000ms, 0667ms total)
T065C 010:834 JLINK_ReadReg(R2)  returns 0x00000002 (0000ms, 0667ms total)
T065C 010:834 JLINK_ReadReg(R3)  returns 0x00000003 (0000ms, 0667ms total)
T065C 010:834 JLINK_ReadReg(R4)  returns 0x00000007 (0000ms, 0667ms total)
T065C 010:834 JLINK_ReadReg(R5)  returns 0x00000009 (0000ms, 0667ms total)
T065C 010:834 JLINK_ReadReg(R6)  returns 0x00000000 (0001ms, 0668ms total)
T065C 010:835 JLINK_ReadReg(R7)  returns 0x00000000 (0000ms, 0668ms total)
T065C 010:835 JLINK_ReadReg(R8)  returns 0x00000000 (0000ms, 0668ms total)
T065C 010:835 JLINK_ReadReg(R9)  returns 0x00000000 (0000ms, 0668ms total)
T065C 010:835 JLINK_ReadReg(R10)  returns 0x08001DE8 (0000ms, 0668ms total)
T065C 010:835 JLINK_ReadReg(R11)  returns 0x00000000 (0000ms, 0668ms total)
T065C 010:835 JLINK_ReadReg(R12)  returns 0x200002D8 (0000ms, 0668ms total)
T065C 010:835 JLINK_ReadReg(R13 (SP))  returns 0x200044C8 (0000ms, 0668ms total)
T065C 010:835 JLINK_ReadReg(R14)  returns 0x0800040D (0000ms, 0668ms total)
T065C 010:835 JLINK_ReadReg(R15 (PC))  returns 0x08000584 (0000ms, 0668ms total)
T065C 010:835 JLINK_ReadReg(XPSR)  returns 0x01000000 (0000ms, 0668ms total)
T065C 010:835 JLINK_ReadReg(MSP)  returns 0x200044C8 (0000ms, 0668ms total)
T065C 010:835 JLINK_ReadReg(PSP)  returns 0x00000000 (0000ms, 0668ms total)
T065C 010:835 JLINK_ReadReg(CFBP)  returns 0x04000000 (0000ms, 0668ms total)
T065C 010:835 JLINK_ReadReg(FPSCR)  returns 0x03000000 (0000ms, 0668ms total)
T065C 010:835 JLINK_ReadReg(FPS0)  returns 0x00000000 (0000ms, 0668ms total)
T065C 010:835 JLINK_ReadReg(FPS1)  returns 0x00000000 (0000ms, 0668ms total)
T065C 010:835 JLINK_ReadReg(FPS2)  returns 0x00000000 (0000ms, 0668ms total)
T065C 010:835 JLINK_ReadReg(FPS3)  returns 0x00000000 (0000ms, 0668ms total)
T065C 010:835 JLINK_ReadReg(FPS4)  returns 0x00000000 (0000ms, 0668ms total)
T065C 010:835 JLINK_ReadReg(FPS5)  returns 0x00000000 (0000ms, 0668ms total)
T065C 010:835 JLINK_ReadReg(FPS6)  returns 0x00000000 (0000ms, 0668ms total)
T065C 010:835 JLINK_ReadReg(FPS7)  returns 0x00000000 (0000ms, 0668ms total)
T065C 010:835 JLINK_ReadReg(FPS8)  returns 0x00000000 (0000ms, 0668ms total)
T065C 010:835 JLINK_ReadReg(FPS9)  returns 0x00000000 (0000ms, 0668ms total)
T065C 010:835 JLINK_ReadReg(FPS10)  returns 0x00000000 (0000ms, 0668ms total)
T065C 010:835 JLINK_ReadReg(FPS11)  returns 0x00000000 (0000ms, 0668ms total)
T065C 010:835 JLINK_ReadReg(FPS12)  returns 0x00000000 (0000ms, 0668ms total)
T065C 010:835 JLINK_ReadReg(FPS13)  returns 0x00000000 (0000ms, 0668ms total)
T065C 010:835 JLINK_ReadReg(FPS14)  returns 0x00000000 (0000ms, 0668ms total)
T065C 010:835 JLINK_ReadReg(FPS15)  returns 0x00000000 (0000ms, 0668ms total)
T065C 010:835 JLINK_ReadReg(FPS16)  returns 0x00000000 (0000ms, 0668ms total)
T065C 010:835 JLINK_ReadReg(FPS17)  returns 0x00000000 (0000ms, 0668ms total)
T065C 010:835 JLINK_ReadReg(FPS18)  returns 0x00000000 (0000ms, 0668ms total)
T065C 010:835 JLINK_ReadReg(FPS19)  returns 0x00000000 (0000ms, 0668ms total)
T065C 010:835 JLINK_ReadReg(FPS20)  returns 0x00000000 (0000ms, 0668ms total)
T065C 010:835 JLINK_ReadReg(FPS31)  returns 0x00000000 (0000ms, 0668ms total)
T065C 010:835 JLINK_ReadReg(FPS7)  returns 0x00000000 (0000ms, 0668ms total)
T065C 010:835 JLINK_ReadReg(FPS8)  returns 0x00000000 (0001ms, 0669ms total)
T065C 010:836 JLINK_ReadReg(FPS9)  returns 0x00000000 (0000ms, 0669ms total)
T065C 010:836 JLINK_ReadReg(FPS10)  returns 0x00000000 (0000ms, 0669ms total)
T065C 010:836 JLINK_ReadReg(FPS11)  returns 0x00000000 (0000ms, 0669ms total)
T065C 010:836 JLINK_ReadReg(FPS12)  returns 0x00000000 (0000ms, 0669ms total)
T065C 010:836 JLINK_ReadReg(FPS13)  returns 0x00000000 (0000ms, 0669ms total)
T065C 010:836 JLINK_ReadReg(FPS14)  returns 0x00000000 (0000ms, 0669ms total)
T065C 010:836 JLINK_ReadReg(FPS15)  returns 0x00000000 (0000ms, 0669ms total)
T065C 010:836 JLINK_ReadReg(FPS16)  returns 0x00000000 (0000ms, 0669ms total)
T20DC 010:840 JLINK_ReadMemU32(0xE0001004, 0x0001 Items, ...) -- Data:  A8 47 00 00  returns 0x01 (0001ms, 0670ms total)
T20DC 010:844 JLINK_ReadMem (0x08000584, 0x003C Bytes, ...) -- CPU_ReadMem(64 bytes @ 0x08000580) -- Updating C cache (64 bytes @ 0x08000580) -- Read from C cache (60 bytes @ 0x08000584) -- Data:  10 B5 50 48 00 68 01 F0 A1 FA 10 BD 10 B5 04 46 ...  returns 0x00 (0001ms, 0671ms total)
T065C 012:823 JLINK_Step() -- Read from C cache (2 bytes @ 0x08000584) -- CPU_WriteMem(8 bytes @ 0x200044C0) -- Simulated  returns 0x00 (0001ms, 0672ms total)
T065C 012:824 JLINK_ReadReg(R15 (PC))  returns 0x08000586 (0000ms, 0672ms total)
T065C 012:824 JLINK_ReadReg(XPSR)  returns 0x01000000 (0000ms, 0672ms total)
T065C 012:824 JLINK_ReadReg(R0)  returns 0x00000000 (0000ms, 0672ms total)
T065C 012:824 JLINK_ReadReg(R1)  returns 0x00000001 (0000ms, 0672ms total)
T065C 012:824 JLINK_ReadReg(R2)  returns 0x00000002 (0000ms, 0672ms total)
T065C 012:824 JLINK_ReadReg(R3)  returns 0x00000003 (0000ms, 0672ms total)
T065C 012:824 JLINK_ReadReg(R4)  returns 0x00000007 (0000ms, 0672ms total)
T065C 012:824 JLINK_ReadReg(R5)  returns 0x00000009 (0000ms, 0672ms total)
T065C 012:824 JLINK_ReadReg(R6)  returns 0x00000000 (0000ms, 0672ms total)
T065C 012:825 JLINK_ReadReg(R7)  returns 0x00000000 (0000ms, 0672ms total)
T065C 012:825 JLINK_ReadReg(R8)  returns 0x00000000 (0000ms, 0672ms total)
T065C 012:825 JLINK_ReadReg(R9)  returns 0x00000000 (0000ms, 0672ms total)
T065C 012:825 JLINK_ReadReg(R10)  returns 0x08001DE8 (0000ms, 0672ms total)
T065C 012:825 JLINK_ReadReg(R11)  returns 0x00000000 (0000ms, 0672ms total)
T065C 012:825 JLINK_ReadReg(R12)  returns 0x200002D8 (0000ms, 0672ms total)
T065C 012:825 JLINK_ReadReg(R13 (SP))  returns 0x200044C0 (0000ms, 0672ms total)
T065C 012:825 JLINK_ReadReg(R14)  returns 0x0800040D (0000ms, 0672ms total)
T065C 012:825 JLINK_ReadReg(R15 (PC))  returns 0x08000586 (0000ms, 0672ms total)
T065C 012:825 JLINK_ReadReg(XPSR)  returns 0x01000000 (0000ms, 0672ms total)
T065C 012:825 JLINK_ReadReg(MSP)  returns 0x200044C0 (0000ms, 0672ms total)
T065C 012:825 JLINK_ReadReg(PSP)  returns 0x00000000 (0000ms, 0672ms total)
T065C 012:825 JLINK_ReadReg(CFBP)  returns 0x04000000 (0000ms, 0672ms total)
T065C 012:825 JLINK_ReadReg(FPSCR)  returns 0x03000000 (0000ms, 0672ms total)
T065C 012:825 JLINK_ReadReg(FPS0)  returns 0x00000000 (0000ms, 0672ms total)
T065C 012:825 JLINK_ReadReg(FPS1)  returns 0x00000000 (0000ms, 0672ms total)
T065C 012:825 JLINK_ReadReg(FPS2)  returns 0x00000000 (0000ms, 0672ms total)
T065C 012:825 JLINK_ReadReg(FPS3)  returns 0x00000000 (0000ms, 0672ms total)
T065C 012:825 JLINK_ReadReg(FPS4)  returns 0x00000000 (0000ms, 0672ms total)
T065C 012:825 JLINK_ReadReg(FPS5)  returns 0x00000000 (0000ms, 0672ms total)
T065C 012:825 JLINK_ReadReg(FPS6)  returns 0x00000000 (0000ms, 0672ms total)
T065C 012:825 JLINK_ReadReg(FPS7)  returns 0x00000000 (0000ms, 0672ms total)
T065C 012:825 JLINK_ReadReg(FPS8)  returns 0x00000000 (0000ms, 0672ms total)
T065C 012:825 JLINK_ReadReg(FPS9)  returns 0x00000000 (0000ms, 0672ms total)
T065C 012:825 JLINK_ReadReg(FPS10)  returns 0x00000000 (0000ms, 0672ms total)
T065C 012:825 JLINK_ReadReg(FPS11)  returns 0x00000000 (0000ms, 0672ms total)
T065C 012:825 JLINK_ReadReg(FPS12)  returns 0x00000000 (0000ms, 0672ms total)
T065C 012:825 JLINK_ReadReg(FPS13)  returns 0x00000000 (0000ms, 0672ms total)
T065C 012:825 JLINK_ReadReg(FPS14)  returns 0x00000000 (0000ms, 0672ms total)
T065C 012:825 JLINK_ReadReg(FPS15)  returns 0x00000000 (0000ms, 0672ms total)
T065C 012:825 JLINK_ReadReg(FPS16)  returns 0x00000000 (0000ms, 0672ms total)
T065C 012:825 JLINK_ReadReg(FPS17)  returns 0x00000000 (0000ms, 0672ms total)
T065C 012:825 JLINK_ReadReg(FPS18)  returns 0x00000000 (0000ms, 0672ms total)
T065C 012:825 JLINK_ReadReg(FPS19)  returns 0x00000000 (0000ms, 0672ms total)
T065C 012:825 JLINK_ReadReg(FPS20)  returns 0x00000000 (0000ms, 0672ms total)
T065C 012:825 JLINK_ReadReg(FPS31)  returns 0x00000000 (0000ms, 0672ms total)
T065C 012:825 JLINK_ReadReg(FPS7)  returns 0x00000000 (0000ms, 0672ms total)
T065C 012:825 JLINK_ReadReg(FPS8)  returns 0x00000000 (0001ms, 0673ms total)
T065C 012:826 JLINK_ReadReg(FPS9)  returns 0x00000000 (0000ms, 0673ms total)
T065C 012:826 JLINK_ReadReg(FPS10)  returns 0x00000000 (0000ms, 0673ms total)
T065C 012:826 JLINK_ReadReg(FPS11)  returns 0x00000000 (0000ms, 0673ms total)
T065C 012:826 JLINK_ReadReg(FPS12)  returns 0x00000000 (0000ms, 0673ms total)
T065C 012:826 JLINK_ReadReg(FPS13)  returns 0x00000000 (0000ms, 0673ms total)
T065C 012:826 JLINK_ReadReg(FPS14)  returns 0x00000000 (0000ms, 0673ms total)
T065C 012:826 JLINK_ReadReg(FPS15)  returns 0x00000000 (0000ms, 0673ms total)
T065C 012:826 JLINK_ReadReg(FPS16)  returns 0x00000000 (0000ms, 0673ms total)
T20DC 012:827 JLINK_ReadMem (0x200044C4, 0x0004 Bytes, ...) -- CPU_ReadMem(64 bytes @ 0x200044C0) -- Updating C cache (64 bytes @ 0x200044C0) -- Read from C cache (4 bytes @ 0x200044C4) -- Data:  0D 04 00 08  returns 0x00 (0001ms, 0674ms total)
T20DC 012:828 JLINK_ReadMem (0x200044C0, 0x0004 Bytes, ...) -- Read from C cache (4 bytes @ 0x200044C0) -- Data:  07 00 00 00  returns 0x00 (0000ms, 0674ms total)
T20DC 012:828 JLINK_ReadMemU32(0xE0001004, 0x0001 Items, ...) -- Data:  A8 47 00 00  returns 0x01 (0000ms, 0674ms total)
T065C 013:526 JLINK_Step() -- Read from C cache (2 bytes @ 0x08000586) -- CPU_ReadMem(64 bytes @ 0x080006C0) -- Updating C cache (64 bytes @ 0x080006C0) -- Read from C cache (4 bytes @ 0x080006C8) -- Simulated  returns 0x00 (0002ms, 0676ms total)
T065C 013:528 JLINK_ReadReg(R15 (PC))  returns 0x08000588 (0000ms, 0676ms total)
T065C 013:528 JLINK_ReadReg(XPSR)  returns 0x01000000 (0000ms, 0676ms total)
T065C 013:528 JLINK_ReadReg(R0)  returns 0x20000070 (0000ms, 0676ms total)
T065C 013:528 JLINK_ReadReg(R1)  returns 0x00000001 (0000ms, 0676ms total)
T065C 013:528 JLINK_ReadReg(R2)  returns 0x00000002 (0000ms, 0676ms total)
T065C 013:528 JLINK_ReadReg(R3)  returns 0x00000003 (0000ms, 0676ms total)
T065C 013:528 JLINK_ReadReg(R4)  returns 0x00000007 (0000ms, 0676ms total)
T065C 013:528 JLINK_ReadReg(R5)  returns 0x00000009 (0000ms, 0676ms total)
T065C 013:528 JLINK_ReadReg(R6)  returns 0x00000000 (0000ms, 0676ms total)
T065C 013:528 JLINK_ReadReg(R7)  returns 0x00000000 (0000ms, 0676ms total)
T065C 013:528 JLINK_ReadReg(R8)  returns 0x00000000 (0000ms, 0676ms total)
T065C 013:528 JLINK_ReadReg(R9)  returns 0x00000000 (0000ms, 0676ms total)
T065C 013:528 JLINK_ReadReg(R10)  returns 0x08001DE8 (0000ms, 0676ms total)
T065C 013:528 JLINK_ReadReg(R11)  returns 0x00000000 (0000ms, 0676ms total)
T065C 013:528 JLINK_ReadReg(R12)  returns 0x200002D8 (0000ms, 0676ms total)
T065C 013:528 JLINK_ReadReg(R13 (SP))  returns 0x200044C0 (0000ms, 0676ms total)
T065C 013:528 JLINK_ReadReg(R14)  returns 0x0800040D (0000ms, 0676ms total)
T065C 013:528 JLINK_ReadReg(R15 (PC))  returns 0x08000588 (0000ms, 0676ms total)
T065C 013:528 JLINK_ReadReg(XPSR)  returns 0x01000000 (0000ms, 0676ms total)
T065C 013:528 JLINK_ReadReg(MSP)  returns 0x200044C0 (0000ms, 0676ms total)
T065C 013:528 JLINK_ReadReg(PSP)  returns 0x00000000 (0000ms, 0676ms total)
T065C 013:529 JLINK_ReadReg(CFBP)  returns 0x04000000 (0000ms, 0677ms total)
T065C 013:529 JLINK_ReadReg(FPSCR)  returns 0x03000000 (0000ms, 0677ms total)
T065C 013:529 JLINK_ReadReg(FPS0)  returns 0x00000000 (0000ms, 0677ms total)
T065C 013:529 JLINK_ReadReg(FPS1)  returns 0x00000000 (0000ms, 0677ms total)
T065C 013:529 JLINK_ReadReg(FPS2)  returns 0x00000000 (0000ms, 0677ms total)
T065C 013:529 JLINK_ReadReg(FPS3)  returns 0x00000000 (0000ms, 0677ms total)
T065C 013:529 JLINK_ReadReg(FPS4)  returns 0x00000000 (0000ms, 0677ms total)
T065C 013:529 JLINK_ReadReg(FPS5)  returns 0x00000000 (0000ms, 0677ms total)
T065C 013:529 JLINK_ReadReg(FPS6)  returns 0x00000000 (0000ms, 0677ms total)
T065C 013:529 JLINK_ReadReg(FPS7)  returns 0x00000000 (0000ms, 0677ms total)
T065C 013:529 JLINK_ReadReg(FPS8)  returns 0x00000000 (0000ms, 0677ms total)
T065C 013:529 JLINK_ReadReg(FPS9)  returns 0x00000000 (0000ms, 0677ms total)
T065C 013:529 JLINK_ReadReg(FPS10)  returns 0x00000000 (0000ms, 0677ms total)
T065C 013:529 JLINK_ReadReg(FPS11)  returns 0x00000000 (0000ms, 0677ms total)
T065C 013:529 JLINK_ReadReg(FPS12)  returns 0x00000000 (0000ms, 0677ms total)
T065C 013:529 JLINK_ReadReg(FPS13)  returns 0x00000000 (0000ms, 0677ms total)
T065C 013:529 JLINK_ReadReg(FPS14)  returns 0x00000000 (0000ms, 0677ms total)
T065C 013:529 JLINK_ReadReg(FPS15)  returns 0x00000000 (0000ms, 0677ms total)
T065C 013:529 JLINK_ReadReg(FPS16)  returns 0x00000000 (0000ms, 0677ms total)
T065C 013:529 JLINK_ReadReg(FPS17)  returns 0x00000000 (0000ms, 0677ms total)
T065C 013:529 JLINK_ReadReg(FPS18)  returns 0x00000000 (0000ms, 0677ms total)
T065C 013:529 JLINK_ReadReg(FPS19)  returns 0x00000000 (0000ms, 0677ms total)
T065C 013:529 JLINK_ReadReg(FPS20)  returns 0x00000000 (0000ms, 0677ms total)
T065C 013:529 JLINK_ReadReg(FPS31)  returns 0x00000000 (0000ms, 0677ms total)
T065C 013:529 JLINK_ReadReg(FPS7)  returns 0x00000000 (0000ms, 0677ms total)
T065C 013:529 JLINK_ReadReg(FPS8)  returns 0x00000000 (0000ms, 0677ms total)
T065C 013:529 JLINK_ReadReg(FPS9)  returns 0x00000000 (0000ms, 0677ms total)
T065C 013:529 JLINK_ReadReg(FPS10)  returns 0x00000000 (0000ms, 0677ms total)
T065C 013:529 JLINK_ReadReg(FPS11)  returns 0x00000000 (0000ms, 0677ms total)
T065C 013:529 JLINK_ReadReg(FPS12)  returns 0x00000000 (0000ms, 0677ms total)
T065C 013:529 JLINK_ReadReg(FPS13)  returns 0x00000000 (0000ms, 0677ms total)
T065C 013:529 JLINK_ReadReg(FPS14)  returns 0x00000000 (0000ms, 0677ms total)
T065C 013:529 JLINK_ReadReg(FPS15)  returns 0x00000000 (0000ms, 0677ms total)
T065C 013:529 JLINK_ReadReg(FPS16)  returns 0x00000000 (0000ms, 0677ms total)
T20DC 013:532 JLINK_ReadMem (0x200044C4, 0x0004 Bytes, ...) -- Read from C cache (4 bytes @ 0x200044C4) -- Data:  0D 04 00 08  returns 0x00 (0000ms, 0677ms total)
T20DC 013:532 JLINK_ReadMem (0x200044C0, 0x0004 Bytes, ...) -- Read from C cache (4 bytes @ 0x200044C0) -- Data:  07 00 00 00  returns 0x00 (0000ms, 0677ms total)
T20DC 013:532 JLINK_ReadMemU32(0xE0001004, 0x0001 Items, ...) -- Data:  A8 47 00 00  returns 0x01 (0000ms, 0677ms total)
T065C 014:518 JLINK_Step() -- Read from C cache (2 bytes @ 0x08000588) -- CPU_ReadMem(64 bytes @ 0x20000040) -- Updating C cache (64 bytes @ 0x20000040) -- Read from C cache (4 bytes @ 0x20000070) -- Simulated  returns 0x00 (0002ms, 0679ms total)
T065C 014:520 JLINK_ReadReg(R15 (PC))  returns 0x0800058A (0000ms, 0679ms total)
T065C 014:520 JLINK_ReadReg(XPSR)  returns 0x01000000 (0000ms, 0679ms total)
T065C 014:520 JLINK_ReadReg(R0)  returns 0x2000000C (0000ms, 0679ms total)
T065C 014:520 JLINK_ReadReg(R1)  returns 0x00000001 (0000ms, 0679ms total)
T065C 014:520 JLINK_ReadReg(R2)  returns 0x00000002 (0000ms, 0679ms total)
T065C 014:520 JLINK_ReadReg(R3)  returns 0x00000003 (0000ms, 0679ms total)
T065C 014:520 JLINK_ReadReg(R4)  returns 0x00000007 (0000ms, 0679ms total)
T065C 014:520 JLINK_ReadReg(R5)  returns 0x00000009 (0000ms, 0679ms total)
T065C 014:521 JLINK_ReadReg(R6)  returns 0x00000000 (0000ms, 0680ms total)
T065C 014:521 JLINK_ReadReg(R7)  returns 0x00000000 (0000ms, 0680ms total)
T065C 014:521 JLINK_ReadReg(R8)  returns 0x00000000 (0000ms, 0680ms total)
T065C 014:521 JLINK_ReadReg(R9)  returns 0x00000000 (0000ms, 0680ms total)
T065C 014:521 JLINK_ReadReg(R10)  returns 0x08001DE8 (0000ms, 0680ms total)
T065C 014:521 JLINK_ReadReg(R11)  returns 0x00000000 (0000ms, 0680ms total)
T065C 014:521 JLINK_ReadReg(R12)  returns 0x200002D8 (0000ms, 0680ms total)
T065C 014:521 JLINK_ReadReg(R13 (SP))  returns 0x200044C0 (0000ms, 0680ms total)
T065C 014:521 JLINK_ReadReg(R14)  returns 0x0800040D (0000ms, 0680ms total)
T065C 014:521 JLINK_ReadReg(R15 (PC))  returns 0x0800058A (0000ms, 0680ms total)
T065C 014:521 JLINK_ReadReg(XPSR)  returns 0x01000000 (0000ms, 0680ms total)
T065C 014:521 JLINK_ReadReg(MSP)  returns 0x200044C0 (0000ms, 0680ms total)
T065C 014:521 JLINK_ReadReg(PSP)  returns 0x00000000 (0000ms, 0680ms total)
T065C 014:521 JLINK_ReadReg(CFBP)  returns 0x04000000 (0000ms, 0680ms total)
T065C 014:521 JLINK_ReadReg(FPSCR)  returns 0x03000000 (0000ms, 0680ms total)
T065C 014:521 JLINK_ReadReg(FPS0)  returns 0x00000000 (0000ms, 0680ms total)
T065C 014:521 JLINK_ReadReg(FPS1)  returns 0x00000000 (0000ms, 0680ms total)
T065C 014:521 JLINK_ReadReg(FPS2)  returns 0x00000000 (0000ms, 0680ms total)
T065C 014:521 JLINK_ReadReg(FPS3)  returns 0x00000000 (0000ms, 0680ms total)
T065C 014:521 JLINK_ReadReg(FPS4)  returns 0x00000000 (0000ms, 0680ms total)
T065C 014:521 JLINK_ReadReg(FPS5)  returns 0x00000000 (0000ms, 0680ms total)
T065C 014:521 JLINK_ReadReg(FPS6)  returns 0x00000000 (0000ms, 0680ms total)
T065C 014:521 JLINK_ReadReg(FPS7)  returns 0x00000000 (0000ms, 0680ms total)
T065C 014:521 JLINK_ReadReg(FPS8)  returns 0x00000000 (0000ms, 0680ms total)
T065C 014:521 JLINK_ReadReg(FPS9)  returns 0x00000000 (0000ms, 0680ms total)
T065C 014:521 JLINK_ReadReg(FPS10)  returns 0x00000000 (0000ms, 0680ms total)
T065C 014:521 JLINK_ReadReg(FPS11)  returns 0x00000000 (0000ms, 0680ms total)
T065C 014:521 JLINK_ReadReg(FPS12)  returns 0x00000000 (0000ms, 0680ms total)
T065C 014:521 JLINK_ReadReg(FPS13)  returns 0x00000000 (0000ms, 0680ms total)
T065C 014:521 JLINK_ReadReg(FPS14)  returns 0x00000000 (0000ms, 0680ms total)
T065C 014:521 JLINK_ReadReg(FPS15)  returns 0x00000000 (0000ms, 0680ms total)
T065C 014:521 JLINK_ReadReg(FPS16)  returns 0x00000000 (0000ms, 0680ms total)
T065C 014:521 JLINK_ReadReg(FPS17)  returns 0x00000000 (0000ms, 0680ms total)
T065C 014:521 JLINK_ReadReg(FPS18)  returns 0x00000000 (0000ms, 0680ms total)
T065C 014:521 JLINK_ReadReg(FPS19)  returns 0x00000000 (0000ms, 0680ms total)
T065C 014:521 JLINK_ReadReg(FPS20)  returns 0x00000000 (0000ms, 0680ms total)
T065C 014:521 JLINK_ReadReg(FPS31)  returns 0x00000000 (0000ms, 0680ms total)
T065C 014:521 JLINK_ReadReg(FPS7)  returns 0x00000000 (0000ms, 0680ms total)
T065C 014:521 JLINK_ReadReg(FPS8)  returns 0x00000000 (0000ms, 0680ms total)
T065C 014:521 JLINK_ReadReg(FPS9)  returns 0x00000000 (0002ms, 0682ms total)
T065C 014:523 JLINK_ReadReg(FPS10)  returns 0x00000000 (0000ms, 0682ms total)
T065C 014:523 JLINK_ReadReg(FPS11)  returns 0x00000000 (0000ms, 0682ms total)
T065C 014:523 JLINK_ReadReg(FPS12)  returns 0x00000000 (0000ms, 0682ms total)
T065C 014:523 JLINK_ReadReg(FPS13)  returns 0x00000000 (0000ms, 0682ms total)
T065C 014:523 JLINK_ReadReg(FPS14)  returns 0x00000000 (0000ms, 0682ms total)
T065C 014:523 JLINK_ReadReg(FPS15)  returns 0x00000000 (0000ms, 0682ms total)
T065C 014:523 JLINK_ReadReg(FPS16)  returns 0x00000000 (0000ms, 0682ms total)
T20DC 014:524 JLINK_ReadMem (0x200044C4, 0x0004 Bytes, ...) -- Read from C cache (4 bytes @ 0x200044C4) -- Data:  0D 04 00 08  returns 0x00 (0000ms, 0682ms total)
T20DC 014:524 JLINK_ReadMem (0x200044C0, 0x0004 Bytes, ...) -- Read from C cache (4 bytes @ 0x200044C0) -- Data:  07 00 00 00  returns 0x00 (0000ms, 0682ms total)
T20DC 014:525 JLINK_ReadMemU32(0xE0001004, 0x0001 Items, ...) -- Data:  A8 47 00 00  returns 0x01 (0000ms, 0682ms total)
T20DC 014:527 JLINK_ReadMem (0x0800058A, 0x0002 Bytes, ...) -- Read from C cache (2 bytes @ 0x0800058A) -- Data:  01 F0  returns 0x00 (0000ms, 0682ms total)
T20DC 014:527 JLINK_ReadMem (0x0800058C, 0x003C Bytes, ...) -- CPU_ReadMem(64 bytes @ 0x080005C0) -- Updating C cache (64 bytes @ 0x080005C0) -- Read from C cache (60 bytes @ 0x0800058C) -- Data:  A1 FA 10 BD 10 B5 04 46 21 46 4C 48 00 68 01 F0 ...  returns 0x00 (0001ms, 0683ms total)
T065C 015:151 JLINK_Step() -- Read from C cache (2 bytes @ 0x0800058A) -- Read from C cache (2 bytes @ 0x0800058C) -- Simulated  returns 0x00 (0001ms, 0684ms total)
T065C 015:152 JLINK_ReadReg(R15 (PC))  returns 0x08001AD0 (0000ms, 0684ms total)
T065C 015:152 JLINK_ReadReg(XPSR)  returns 0x01000000 (0000ms, 0684ms total)
T065C 015:152 JLINK_ReadReg(R0)  returns 0x2000000C (0000ms, 0684ms total)
T065C 015:152 JLINK_ReadReg(R1)  returns 0x00000001 (0000ms, 0684ms total)
T065C 015:152 JLINK_ReadReg(R2)  returns 0x00000002 (0000ms, 0684ms total)
T065C 015:152 JLINK_ReadReg(R3)  returns 0x00000003 (0000ms, 0684ms total)
T065C 015:152 JLINK_ReadReg(R4)  returns 0x00000007 (0000ms, 0684ms total)
T065C 015:152 JLINK_ReadReg(R5)  returns 0x00000009 (0000ms, 0684ms total)
T065C 015:152 JLINK_ReadReg(R6)  returns 0x00000000 (0000ms, 0684ms total)
T065C 015:152 JLINK_ReadReg(R7)  returns 0x00000000 (0000ms, 0684ms total)
T065C 015:152 JLINK_ReadReg(R8)  returns 0x00000000 (0000ms, 0684ms total)
T065C 015:152 JLINK_ReadReg(R9)  returns 0x00000000 (0000ms, 0684ms total)
T065C 015:152 JLINK_ReadReg(R10)  returns 0x08001DE8 (0001ms, 0685ms total)
T065C 015:153 JLINK_ReadReg(R11)  returns 0x00000000 (0000ms, 0685ms total)
T065C 015:153 JLINK_ReadReg(R12)  returns 0x200002D8 (0000ms, 0685ms total)
T065C 015:153 JLINK_ReadReg(R13 (SP))  returns 0x200044C0 (0000ms, 0685ms total)
T065C 015:153 JLINK_ReadReg(R14)  returns 0x0800058F (0000ms, 0685ms total)
T065C 015:153 JLINK_ReadReg(R15 (PC))  returns 0x08001AD0 (0000ms, 0685ms total)
T065C 015:153 JLINK_ReadReg(XPSR)  returns 0x01000000 (0000ms, 0685ms total)
T065C 015:153 JLINK_ReadReg(MSP)  returns 0x200044C0 (0000ms, 0685ms total)
T065C 015:153 JLINK_ReadReg(PSP)  returns 0x00000000 (0000ms, 0685ms total)
T065C 015:153 JLINK_ReadReg(CFBP)  returns 0x04000000 (0000ms, 0685ms total)
T065C 015:153 JLINK_ReadReg(FPSCR)  returns 0x03000000 (0000ms, 0685ms total)
T065C 015:153 JLINK_ReadReg(FPS0)  returns 0x00000000 (0000ms, 0685ms total)
T065C 015:153 JLINK_ReadReg(FPS1)  returns 0x00000000 (0000ms, 0685ms total)
T065C 015:153 JLINK_ReadReg(FPS2)  returns 0x00000000 (0000ms, 0685ms total)
T065C 015:153 JLINK_ReadReg(FPS3)  returns 0x00000000 (0000ms, 0685ms total)
T065C 015:153 JLINK_ReadReg(FPS4)  returns 0x00000000 (0000ms, 0685ms total)
T065C 015:153 JLINK_ReadReg(FPS5)  returns 0x00000000 (0000ms, 0685ms total)
T065C 015:153 JLINK_ReadReg(FPS6)  returns 0x00000000 (0000ms, 0685ms total)
T065C 015:153 JLINK_ReadReg(FPS7)  returns 0x00000000 (0000ms, 0685ms total)
T065C 015:153 JLINK_ReadReg(FPS8)  returns 0x00000000 (0000ms, 0685ms total)
T065C 015:153 JLINK_ReadReg(FPS9)  returns 0x00000000 (0000ms, 0685ms total)
T065C 015:153 JLINK_ReadReg(FPS10)  returns 0x00000000 (0000ms, 0685ms total)
T065C 015:153 JLINK_ReadReg(FPS11)  returns 0x00000000 (0000ms, 0685ms total)
T065C 015:153 JLINK_ReadReg(FPS12)  returns 0x00000000 (0000ms, 0685ms total)
T065C 015:153 JLINK_ReadReg(FPS13)  returns 0x00000000 (0000ms, 0685ms total)
T065C 015:153 JLINK_ReadReg(FPS14)  returns 0x00000000 (0000ms, 0685ms total)
T065C 015:153 JLINK_ReadReg(FPS15)  returns 0x00000000 (0000ms, 0685ms total)
T065C 015:153 JLINK_ReadReg(FPS16)  returns 0x00000000 (0000ms, 0685ms total)
T065C 015:153 JLINK_ReadReg(FPS17)  returns 0x00000000 (0000ms, 0685ms total)
T065C 015:153 JLINK_ReadReg(FPS18)  returns 0x00000000 (0000ms, 0685ms total)
T065C 015:153 JLINK_ReadReg(FPS19)  returns 0x00000000 (0000ms, 0685ms total)
T065C 015:153 JLINK_ReadReg(FPS20)  returns 0x00000000 (0000ms, 0685ms total)
T065C 015:153 JLINK_ReadReg(FPS31)  returns 0x00000000 (0000ms, 0685ms total)
T065C 015:153 JLINK_ReadReg(FPS7)  returns 0x00000000 (0000ms, 0685ms total)
T065C 015:153 JLINK_ReadReg(FPS8)  returns 0x00000000 (0000ms, 0685ms total)
T065C 015:153 JLINK_ReadReg(FPS9)  returns 0x00000000 (0000ms, 0685ms total)
T065C 015:153 JLINK_ReadReg(FPS10)  returns 0x00000000 (0000ms, 0685ms total)
T065C 015:153 JLINK_ReadReg(FPS11)  returns 0x00000000 (0000ms, 0685ms total)
T065C 015:154 JLINK_ReadReg(FPS12)  returns 0x00000000 (0000ms, 0686ms total)
T065C 015:154 JLINK_ReadReg(FPS13)  returns 0x00000000 (0000ms, 0686ms total)
T065C 015:154 JLINK_ReadReg(FPS14)  returns 0x00000000 (0000ms, 0686ms total)
T065C 015:154 JLINK_ReadReg(FPS15)  returns 0x00000000 (0000ms, 0686ms total)
T065C 015:154 JLINK_ReadReg(FPS16)  returns 0x00000000 (0000ms, 0686ms total)
T20DC 015:156 JLINK_ReadMem (0x200044C4, 0x0004 Bytes, ...) -- Read from C cache (4 bytes @ 0x200044C4) -- Data:  0D 04 00 08  returns 0x00 (0000ms, 0686ms total)
T20DC 015:156 JLINK_ReadMem (0x200044C0, 0x0004 Bytes, ...) -- Read from C cache (4 bytes @ 0x200044C0) -- Data:  07 00 00 00  returns 0x00 (0000ms, 0686ms total)
T20DC 015:156 JLINK_ReadMem (0x00000000, 0x0004 Bytes, ...) -- CPU_ReadMem(4 bytes @ 0x00000004) -- CPU_ReadMem(64 bytes @ 0x08000000) -- Updating C cache (64 bytes @ 0x08000000) -- Read from C cache (4 bytes @ 0x08000000) -- Data:  F8 44 00 20  returns 0x00 (0002ms, 0688ms total)
T20DC 015:159 JLINK_ReadMemU32(0xE0001004, 0x0001 Items, ...) -- Data:  A8 47 00 00  returns 0x01 (0001ms, 0689ms total)
T065C 017:679 JLINK_Step() -- CPU_ReadMem(64 bytes @ 0x08001AC0) -- Updating C cache (64 bytes @ 0x08001AC0) -- Read from C cache (2 bytes @ 0x08001AD0) -- CPU_WriteMem(8 bytes @ 0x200044B8) -- Simulated  returns 0x00 (0003ms, 0692ms total)
T065C 017:682 JLINK_ReadReg(R15 (PC))  returns 0x08001AD2 (0000ms, 0692ms total)
T065C 017:682 JLINK_ReadReg(XPSR)  returns 0x01000000 (0000ms, 0692ms total)
T065C 017:682 JLINK_ReadReg(R0)  returns 0x2000000C (0000ms, 0692ms total)
T065C 017:682 JLINK_ReadReg(R1)  returns 0x00000001 (0000ms, 0692ms total)
T065C 017:682 JLINK_ReadReg(R2)  returns 0x00000002 (0000ms, 0692ms total)
T065C 017:682 JLINK_ReadReg(R3)  returns 0x00000003 (0000ms, 0692ms total)
T065C 017:682 JLINK_ReadReg(R4)  returns 0x00000007 (0000ms, 0692ms total)
T065C 017:682 JLINK_ReadReg(R5)  returns 0x00000009 (0000ms, 0692ms total)
T065C 017:682 JLINK_ReadReg(R6)  returns 0x00000000 (0000ms, 0692ms total)
T065C 017:682 JLINK_ReadReg(R7)  returns 0x00000000 (0000ms, 0692ms total)
T065C 017:682 JLINK_ReadReg(R8)  returns 0x00000000 (0000ms, 0692ms total)
T065C 017:682 JLINK_ReadReg(R9)  returns 0x00000000 (0000ms, 0692ms total)
T065C 017:682 JLINK_ReadReg(R10)  returns 0x08001DE8 (0000ms, 0692ms total)
T065C 017:682 JLINK_ReadReg(R11)  returns 0x00000000 (0000ms, 0692ms total)
T065C 017:682 JLINK_ReadReg(R12)  returns 0x200002D8 (0000ms, 0692ms total)
T065C 017:682 JLINK_ReadReg(R13 (SP))  returns 0x200044B8 (0000ms, 0692ms total)
T065C 017:682 JLINK_ReadReg(R14)  returns 0x0800058F (0000ms, 0692ms total)
T065C 017:682 JLINK_ReadReg(R15 (PC))  returns 0x08001AD2 (0000ms, 0692ms total)
T065C 017:682 JLINK_ReadReg(XPSR)  returns 0x01000000 (0000ms, 0692ms total)
T065C 017:682 JLINK_ReadReg(MSP)  returns 0x200044B8 (0000ms, 0692ms total)
T065C 017:682 JLINK_ReadReg(PSP)  returns 0x00000000 (0000ms, 0692ms total)
T065C 017:682 JLINK_ReadReg(CFBP)  returns 0x04000000 (0000ms, 0692ms total)
T065C 017:682 JLINK_ReadReg(FPSCR)  returns 0x03000000 (0000ms, 0692ms total)
T065C 017:682 JLINK_ReadReg(FPS0)  returns 0x00000000 (0001ms, 0693ms total)
T065C 017:683 JLINK_ReadReg(FPS1)  returns 0x00000000 (0000ms, 0693ms total)
T065C 017:683 JLINK_ReadReg(FPS2)  returns 0x00000000 (0000ms, 0693ms total)
T065C 017:683 JLINK_ReadReg(FPS3)  returns 0x00000000 (0000ms, 0693ms total)
T065C 017:683 JLINK_ReadReg(FPS4)  returns 0x00000000 (0000ms, 0693ms total)
T065C 017:683 JLINK_ReadReg(FPS5)  returns 0x00000000 (0000ms, 0693ms total)
T065C 017:683 JLINK_ReadReg(FPS6)  returns 0x00000000 (0000ms, 0693ms total)
T065C 017:683 JLINK_ReadReg(FPS7)  returns 0x00000000 (0000ms, 0693ms total)
T065C 017:683 JLINK_ReadReg(FPS8)  returns 0x00000000 (0000ms, 0693ms total)
T065C 017:683 JLINK_ReadReg(FPS9)  returns 0x00000000 (0000ms, 0693ms total)
T065C 017:683 JLINK_ReadReg(FPS10)  returns 0x00000000 (0000ms, 0693ms total)
T065C 017:683 JLINK_ReadReg(FPS11)  returns 0x00000000 (0000ms, 0693ms total)
T065C 017:683 JLINK_ReadReg(FPS12)  returns 0x00000000 (0000ms, 0693ms total)
T065C 017:683 JLINK_ReadReg(FPS13)  returns 0x00000000 (0000ms, 0693ms total)
T065C 017:683 JLINK_ReadReg(FPS14)  returns 0x00000000 (0000ms, 0693ms total)
T065C 017:683 JLINK_ReadReg(FPS15)  returns 0x00000000 (0000ms, 0693ms total)
T065C 017:683 JLINK_ReadReg(FPS16)  returns 0x00000000 (0000ms, 0693ms total)
T065C 017:683 JLINK_ReadReg(FPS17)  returns 0x00000000 (0000ms, 0693ms total)
